
T0DE0 000:326 SEGGER J-Link V5.10l Log File (0000ms, 0275ms total)
T0DE0 000:326 DLL Compiled: Feb 11 2016 18:55:09 (0000ms, 0275ms total)
T0DE0 000:326 Logging started @ 2019-11-22 15:38 (0000ms, 0275ms total)
T0DE0 000:326 JLINK_SetWarnOutHandler(...) (0000ms, 0275ms total)
T0DE0 000:326 JLINK_OpenEx(...)
Firmware: J-Link V9 compiled Jun  2 2222 22:22:22
Hardware: V9.00
S/N: 30000299
Feature(s): GDB, RDI, FlashBP, FlashDL, JFlash, RDDI  returns O.K. (0269ms, 0544ms total)
T0DE0 000:595 JLINK_SetErrorOutHandler(...) (0000ms, 0544ms total)
T0DE0 000:595 JLINK_ExecCommand("ProjectFile = "D:\1-RBCS-01研发\1-RBCS-01下位机\3-ARM程序板代码\【4】特殊版本\5-RBCS-01型红细胞寿命测定呼气试验仪软件代码-V1.4.4版-20191119-采气类型\RBCS-01型红细胞寿命测定核心板软件代码-V1.4.4版-20191119\Project\JLinkSettings.ini"", ...)Device "ARM7" selected.  returns 0x00 (0008ms, 0552ms total)
T0DE0 000:617 JLINK_ExecCommand("Device = STM32F103ZE", ...)Device "STM32F103ZE" selected.  returns 0x00 (0018ms, 0570ms total)
T0DE0 000:635 JLINK_ExecCommand("DisableConnectionTimeout", ...)  returns 0x01 (0000ms, 0570ms total)
T0DE0 000:635 JLINK_GetHardwareVersion()  returns 0x15F90 (0000ms, 0570ms total)
T0DE0 000:635 JLINK_GetDLLVersion()  returns 51012 (0000ms, 0570ms total)
T0DE0 000:635 JLINK_GetFirmwareString(...) (0000ms, 0570ms total)
T0DE0 000:666 JLINK_GetDLLVersion()  returns 51012 (0000ms, 0570ms total)
T0DE0 000:666 JLINK_GetCompileDateTime() (0000ms, 0570ms total)
T0DE0 000:670 JLINK_GetFirmwareString(...) (0000ms, 0570ms total)
T0DE0 000:674 JLINK_GetHardwareVersion()  returns 0x15F90 (0000ms, 0570ms total)
T0DE0 000:689 JLINK_TIF_Select(JLINKARM_TIF_JTAG)  returns 0x00 (0002ms, 0572ms total)
T0DE0 000:691 JLINK_SetSpeed(5000) (0000ms, 0572ms total)
T0DE0 000:691 JLINK_GetIdData(...) >0x2F8 JTAG>TotalIRLen = 9, IRPrint = 0x0011 >0x30 JTAG> >0x210 JTAG> >0x40 JTAG> >0x40 JTAG> >0x40 JTAG> >0x30 JTAG> >0x40 JTAG> >0x40 JTAG> >0x40 JTAG> >0x40 JTAG> >0x40 JTAG> >0x40 JTAG> >0x40 JTAG> >0x40 JTAG> >0x40 JTAG> >0x40 JTAG> >0x40 JTAG> >0x40 JTAG> >0x40 JTAG> >0x40 JTAG> >0x40 JTAG> >0x40 JTAG> >0x40 JTAG> >0x40 JTAG> >0x40 JTAG> >0x40 JTAG> >0x40 JTAG> >0x40 JTAG> >0x2F8 JTAG>TotalIRLen = 9, IRPrint = 0x0011 >0x30 JTAG> >0x210 JTAG> >0x70 JTAG>
 >0x50 JTAG> >0x40 JTAG> >0x50 JTAG> >0x80 JTAG> >0x40 JTAG> >0x30 JTAG> >0x40 JTAG> >0x40 JTAG> >0x30 JTAG> >0x40 JTAG> >0x50 JTAG>Found Cortex-M3 r1p1, Little endian. -- CPU_ReadMem(4 bytes @ 0xE000EDF0) -- CPU_WriteMem(4 bytes @ 0xE000EDF0) -- CPU_ReadMem(4 bytes @ 0xE0002000)FPUnit: 6 code (BP) slots and 2 literal slots -- CPU_ReadMem(4 bytes @ 0xE000EDFC) -- CPU_WriteMem(4 bytes @ 0xE000EDFC) -- CPU_ReadMem(4 bytes @ 0xE0001000) -- CPU_WriteMem(4 bytes @ 0xE0001000)
 -- CPU_ReadMem(4 bytes @ 0xE000ED88) -- CPU_WriteMem(4 bytes @ 0xE000ED88) -- CPU_ReadMem(4 bytes @ 0xE000ED88) -- CPU_WriteMem(4 bytes @ 0xE000ED88)CoreSight components:ROMTbl 0 @ E00FF000 -- CPU_ReadMem(16 bytes @ 0xE00FF000) -- CPU_ReadMem(16 bytes @ 0xE000EFF0) -- CPU_ReadMem(16 bytes @ 0xE000EFE0)ROMTbl 0 [0]: FFF0F000, CID: B105E00D, PID: 001BB000 SCS -- CPU_ReadMem(16 bytes @ 0xE0001FF0) -- CPU_ReadMem(16 bytes @ 0xE0001FE0)ROMTbl 0 [1]: FFF02000, CID: B105E00D, PID: 001BB002 DWT
 -- CPU_ReadMem(16 bytes @ 0xE0002FF0) -- CPU_ReadMem(16 bytes @ 0xE0002FE0)ROMTbl 0 [2]: FFF03000, CID: B105E00D, PID: 000BB003 FPB -- CPU_ReadMem(16 bytes @ 0xE0000FF0) -- CPU_ReadMem(16 bytes @ 0xE0000FE0)ROMTbl 0 [3]: FFF01000, CID: B105E00D, PID: 001BB001 ITM -- CPU_ReadMem(16 bytes @ 0xE00FF010) -- CPU_ReadMem(16 bytes @ 0xE0040FF0) -- CPU_ReadMem(16 bytes @ 0xE0040FE0)ROMTbl 0 [4]: FFF41000, CID: B105900D, PID: 001BB923 TPIU-Lite -- CPU_ReadMem(16 bytes @ 0xE0041FF0)
 -- CPU_ReadMem(16 bytes @ 0xE0041FE0)ROMTbl 0 [5]: FFF42000, CID: B105900D, PID: 101BB924 ETM-M3 ScanLen=9 NumDevices=2 aId[0]=0x3BA00477 aIrRead[0]=0 aScanLen[0]=0 aScanRead[0]=0 (0070ms, 0642ms total)
T0DE0 000:761 JLINK_JTAG_GetDeviceID(DeviceIndex = 0)  returns 0x3BA00477 (0000ms, 0642ms total)
T0DE0 000:761 JLINK_JTAG_GetDeviceInfo(DeviceIndex = 0)  returns 0x00 (0000ms, 0642ms total)
T0DE0 000:761 JLINK_JTAG_GetDeviceID(DeviceIndex = 1)  returns 0x6414041 (0000ms, 0642ms total)
T0DE0 000:761 JLINK_JTAG_GetDeviceInfo(DeviceIndex = 1)  returns 0x00 (0000ms, 0642ms total)
T0DE0 000:761 JLINK_GetDLLVersion()  returns 51012 (0000ms, 0642ms total)
T0DE0 000:761 JLINK_CORE_GetFound()  returns 0x30000FF (0000ms, 0642ms total)
T0DE0 000:761 JLINK_GetDebugInfo(0x100) -- Value=0xE00FF003  returns 0x00 (0000ms, 0642ms total)
T0DE0 000:764 JLINK_GetDebugInfo(0x100) -- Value=0xE00FF003  returns 0x00 (0000ms, 0642ms total)
T0DE0 000:764 JLINK_GetDebugInfo(0x101) -- Value=0xE0041000  returns 0x00 (0000ms, 0642ms total)
T0DE0 000:764 JLINK_GetDebugInfo(0x102) -- Value=0x00000000  returns 0x00 (0000ms, 0642ms total)
T0DE0 000:764 JLINK_GetDebugInfo(0x103) -- Value=0xE0040000  returns 0x00 (0000ms, 0642ms total)
T0DE0 000:764 JLINK_GetDebugInfo(0x104) -- Value=0xE0000000  returns 0x00 (0000ms, 0642ms total)
T0DE0 000:764 JLINK_GetDebugInfo(0x105) -- Value=0xE0001000  returns 0x00 (0000ms, 0642ms total)
T0DE0 000:764 JLINK_GetDebugInfo(0x106) -- Value=0xE0002000  returns 0x00 (0000ms, 0642ms total)
T0DE0 000:764 JLINK_GetDebugInfo(0x107) -- Value=0xE000E000  returns 0x00 (0000ms, 0642ms total)
T0DE0 000:764 JLINK_GetDebugInfo(0x10C) -- Value=0xE000EDF0  returns 0x00 (0000ms, 0642ms total)
T0DE0 000:764 JLINK_ReadMemU32(0xE000ED00, 0x0001 Items, ...) -- CPU is running -- CPU_ReadMem(4 bytes @ 0xE000ED00) - Data: 31 C2 1F 41  returns 0x01 (0001ms, 0643ms total)
T0DE0 000:765 JLINK_SetResetType(JLINKARM_RESET_TYPE_NORMAL)  returns JLINKARM_RESET_TYPE_NORMAL (0000ms, 0643ms total)
T0DE0 000:765 JLINK_Reset() -- CPU is running -- CPU_WriteMem(4 bytes @ 0xE000EDF0) -- CPU is running -- CPU_WriteMem(4 bytes @ 0xE000EDFC) -- CPU is running -- CPU_WriteMem(4 bytes @ 0xE000ED0C) -- CPU is running -- CPU_ReadMem(4 bytes @ 0xE000EDF0) -- CPU is running -- CPU_ReadMem(4 bytes @ 0xE000EDF0) -- CPU is running -- CPU_ReadMem(4 bytes @ 0xE000EDF0) -- CPU is running -- CPU_ReadMem(4 bytes @ 0xE000EDF0) -- CPU is running -- CPU_ReadMem(4 bytes @ 0xE000EDF0) -- CPU is running
 -- CPU_ReadMem(4 bytes @ 0xE000EDF0) -- CPU is running -- CPU_ReadMem(4 bytes @ 0xE000EDF0) -- CPU is running -- CPU_WriteMem(4 bytes @ 0xE000EDF0) -- CPU is running -- CPU_WriteMem(4 bytes @ 0xE000EDFC) -- CPU is running -- CPU_ReadMem(4 bytes @ 0xE000EDF0) >0x80 JTAG> >0x40 JTAG> >0x30 JTAG> >0x40 JTAG> >0x50 JTAG> >0x40 JTAG> -- CPU_WriteMem(4 bytes @ 0xE000EDFC) -- CPU_WriteMem(4 bytes @ 0xE0001028) -- CPU_WriteMem(4 bytes @ 0xE0001038) -- CPU_WriteMem(4 bytes @ 0xE0001048)
 -- CPU_WriteMem(4 bytes @ 0xE0001058) -- CPU_WriteMem(4 bytes @ 0xE0002000) -- CPU_ReadMem(4 bytes @ 0xE000EDFC) -- CPU_ReadMem(4 bytes @ 0xE0001000) (0023ms, 0666ms total)
T0DE0 000:788 JLINK_Halt()  returns 0x00 (0000ms, 0666ms total)
T0DE0 000:788 JLINK_IsHalted()  returns TRUE (0000ms, 0666ms total)
T0DE0 000:788 JLINK_ReadMemU32(0xE000EDF0, 0x0001 Items, ...) -- CPU_ReadMem(4 bytes @ 0xE000EDF0) - Data: 03 00 03 00  returns 0x01 (0000ms, 0666ms total)
T0DE0 000:788 JLINK_WriteU32(0xE000EDF0, 0xA05F0003) -- CPU_WriteMem(4 bytes @ 0xE000EDF0)  returns 0x00 (0000ms, 0666ms total)
T0DE0 000:788 JLINK_WriteU32(0xE000EDFC, 0x01000000) -- CPU_WriteMem(4 bytes @ 0xE000EDFC)  returns 0x00 (0000ms, 0666ms total)
T0DE0 000:802 JLINK_GetHWStatus(...)  returns 0x00 (0000ms, 0666ms total)
T0DE0 000:812 JLINK_GetNumBPUnits(Type = 0xFFFFFF00)  returns 0x06 (0000ms, 0666ms total)
T0DE0 000:812 JLINK_GetNumBPUnits(Type = 0xF0)  returns 0x2000 (0000ms, 0666ms total)
T0DE0 000:812 JLINK_GetNumWPUnits()  returns 0x04 (0000ms, 0666ms total)
T0DE0 000:824 JLINK_GetSpeed()  returns 0x1388 (0000ms, 0666ms total)
T0DE0 000:831 JLINK_ReadMemU32(0xE000E004, 0x0001 Items, ...) -- CPU_ReadMem(4 bytes @ 0xE000E004) - Data: 01 00 00 00  returns 0x01 (0001ms, 0667ms total)
T0DE0 000:832 JLINK_ReadMemU32(0xE000E004, 0x0001 Items, ...) -- CPU_ReadMem(4 bytes @ 0xE000E004) - Data: 01 00 00 00  returns 0x01 (0002ms, 0669ms total)
T0DE0 000:834 JLINK_WriteMem(0xE0001000, 0x001C Bytes, ...) - Data: 01 00 00 00 00 00 00 00 00 00 00 00 00 00 00 00 ... -- CPU_WriteMem(28 bytes @ 0xE0001000)  returns 0x1C (0001ms, 0670ms total)
T0DE0 000:835 JLINK_ReadMem (0xE0001000, 0x001C Bytes, ...) -- CPU_ReadMem(28 bytes @ 0xE0001000) - Data: 01 00 00 40 00 00 00 00 00 00 00 00 00 00 00 00 ...  returns 0x00 (0002ms, 0672ms total)
T0DE0 000:837 JLINK_Halt()  returns 0x00 (0000ms, 0672ms total)
T0DE0 000:837 JLINK_IsHalted()  returns TRUE (0000ms, 0672ms total)
T0DE0 000:839 JLINK_WriteMem(0x20000000, 0x0164 Bytes, ...) - Data: 00 BE 0A E0 0D 78 2D 06 68 40 08 24 40 00 00 D3 ... -- CPU_WriteMem(356 bytes @ 0x20000000)  returns 0x164 (0003ms, 0675ms total)
T0DE0 000:842 JLINK_WriteReg(R0, 0x08000000)  returns 0x00 (0000ms, 0675ms total)
T0DE0 000:842 JLINK_WriteReg(R1, 0x00B71B00)  returns 0x00 (0000ms, 0675ms total)
T0DE0 000:842 JLINK_WriteReg(R2, 0x00000001)  returns 0x00 (0000ms, 0675ms total)
T0DE0 000:842 JLINK_WriteReg(R3, 0x00000000)  returns 0x00 (0000ms, 0675ms total)
T0DE0 000:842 JLINK_WriteReg(R4, 0x00000000)  returns 0x00 (0000ms, 0675ms total)
T0DE0 000:842 JLINK_WriteReg(R5, 0x00000000)  returns 0x00 (0000ms, 0675ms total)
T0DE0 000:842 JLINK_WriteReg(R6, 0x00000000)  returns 0x00 (0000ms, 0675ms total)
T0DE0 000:842 JLINK_WriteReg(R7, 0x00000000)  returns 0x00 (0000ms, 0675ms total)
T0DE0 000:842 JLINK_WriteReg(R8, 0x00000000)  returns 0x00 (0000ms, 0675ms total)
T0DE0 000:842 JLINK_WriteReg(R9, 0x20000160)  returns 0x00 (0000ms, 0675ms total)
T0DE0 000:842 JLINK_WriteReg(R10, 0x00000000)  returns 0x00 (0000ms, 0675ms total)
T0DE0 000:842 JLINK_WriteReg(R11, 0x00000000)  returns 0x00 (0000ms, 0675ms total)
T0DE0 000:842 JLINK_WriteReg(R12, 0x00000000)  returns 0x00 (0000ms, 0675ms total)
T0DE0 000:842 JLINK_WriteReg(R13 (SP), 0x20001000)  returns 0x00 (0000ms, 0675ms total)
T0DE0 000:842 JLINK_WriteReg(R14, 0x20000001)  returns 0x00 (0000ms, 0675ms total)
T0DE0 000:842 JLINK_WriteReg(R15 (PC), 0x20000038)  returns 0x00 (0000ms, 0675ms total)
T0DE0 000:842 JLINK_WriteReg(XPSR, 0x01000000)  returns 0x00 (0000ms, 0675ms total)
T0DE0 000:842 JLINK_WriteReg(MSP, 0x20001000)  returns 0x00 (0000ms, 0675ms total)
T0DE0 000:842 JLINK_WriteReg(PSP, 0x20001000)  returns 0x00 (0000ms, 0675ms total)
T0DE0 000:842 JLINK_WriteReg(CFBP, 0x00000000)  returns 0x00 (0000ms, 0675ms total)
T0DE0 000:842 JLINK_SetBPEx(Addr = 0x20000000, Type = 0xFFFFFFF2) -- CPU_ReadMem(2 bytes @ 0x20000000)  returns 0x00000001 (0001ms, 0676ms total)
T0DE0 000:843 JLINK_Go() -- CPU_WriteMem(2 bytes @ 0x20000000) -- CPU_ReadMem(4 bytes @ 0xE0001000) -- CPU_WriteMem(4 bytes @ 0xE0002008) -- CPU_WriteMem(4 bytes @ 0xE000200C) -- CPU_WriteMem(4 bytes @ 0xE0002010) -- CPU_WriteMem(4 bytes @ 0xE0002014) -- CPU_WriteMem(4 bytes @ 0xE0002018) -- CPU_WriteMem(4 bytes @ 0xE000201C) -- CPU_WriteMem(4 bytes @ 0xE0001004) (0010ms, 0686ms total)
T0DE0 000:853 JLINK_IsHalted() -- CPU_ReadMem(2 bytes @ 0x20000000)  returns TRUE (0005ms, 0691ms total)
T0DE0 000:858 JLINK_ReadReg(R15 (PC))  returns 0x20000000 (0000ms, 0686ms total)
T0DE0 000:858 JLINK_ClrBPEx(BPHandle = 0x00000001)  returns 0x00 (0000ms, 0686ms total)
T0DE0 000:858 JLINK_ReadReg(R0)  returns 0x00000000 (0000ms, 0686ms total)
T0DE0 000:858 JLINK_WriteReg(R0, 0x08000000)  returns 0x00 (0000ms, 0686ms total)
T0DE0 000:858 JLINK_WriteReg(R1, 0x00B71B00)  returns 0x00 (0000ms, 0686ms total)
T0DE0 000:858 JLINK_WriteReg(R2, 0x00000001)  returns 0x00 (0000ms, 0686ms total)
T0DE0 000:858 JLINK_WriteReg(R3, 0x00000000)  returns 0x00 (0000ms, 0686ms total)
T0DE0 000:859 JLINK_WriteReg(R4, 0x00000000)  returns 0x00 (0000ms, 0687ms total)
T0DE0 000:859 JLINK_WriteReg(R5, 0x00000000)  returns 0x00 (0000ms, 0687ms total)
T0DE0 000:859 JLINK_WriteReg(R6, 0x00000000)  returns 0x00 (0000ms, 0687ms total)
T0DE0 000:859 JLINK_WriteReg(R7, 0x00000000)  returns 0x00 (0000ms, 0687ms total)
T0DE0 000:859 JLINK_WriteReg(R8, 0x00000000)  returns 0x00 (0000ms, 0687ms total)
T0DE0 000:859 JLINK_WriteReg(R9, 0x20000160)  returns 0x00 (0000ms, 0687ms total)
T0DE0 000:859 JLINK_WriteReg(R10, 0x00000000)  returns 0x00 (0000ms, 0687ms total)
T0DE0 000:859 JLINK_WriteReg(R11, 0x00000000)  returns 0x00 (0000ms, 0687ms total)
T0DE0 000:859 JLINK_WriteReg(R12, 0x00000000)  returns 0x00 (0000ms, 0687ms total)
T0DE0 000:859 JLINK_WriteReg(R13 (SP), 0x20001000)  returns 0x00 (0000ms, 0687ms total)
T0DE0 000:859 JLINK_WriteReg(R14, 0x20000001)  returns 0x00 (0000ms, 0687ms total)
T0DE0 000:859 JLINK_WriteReg(R15 (PC), 0x2000007C)  returns 0x00 (0000ms, 0687ms total)
T0DE0 000:859 JLINK_WriteReg(XPSR, 0x01000000)  returns 0x00 (0000ms, 0687ms total)
T0DE0 000:859 JLINK_WriteReg(MSP, 0x20001000)  returns 0x00 (0000ms, 0687ms total)
T0DE0 000:859 JLINK_WriteReg(PSP, 0x20001000)  returns 0x00 (0000ms, 0687ms total)
T0DE0 000:859 JLINK_WriteReg(CFBP, 0x00000000)  returns 0x00 (0000ms, 0687ms total)
T0DE0 000:859 JLINK_SetBPEx(Addr = 0x20000000, Type = 0xFFFFFFF2)  returns 0x00000002 (0000ms, 0687ms total)
T0DE0 000:859 JLINK_Go() -- CPU_ReadMem(4 bytes @ 0xE0001000) (0004ms, 0691ms total)
T0DE0 000:863 JLINK_IsHalted()  returns FALSE (0001ms, 0692ms total)
T0DE0 000:998 JLINK_IsHalted() -- CPU_ReadMem(2 bytes @ 0x20000000)  returns TRUE (0002ms, 0693ms total)
T0DE0 001:000 JLINK_ReadReg(R15 (PC))  returns 0x20000000 (0000ms, 0691ms total)
T0DE0 001:000 JLINK_ClrBPEx(BPHandle = 0x00000002)  returns 0x00 (0000ms, 0691ms total)
T0DE0 001:000 JLINK_ReadReg(R0)  returns 0x00000000 (0000ms, 0691ms total)
T0DE0 001:051 JLINK_WriteReg(R0, 0x00000001)  returns 0x00 (0000ms, 0691ms total)
T0DE0 001:051 JLINK_WriteReg(R1, 0x00B71B00)  returns 0x00 (0000ms, 0691ms total)
T0DE0 001:051 JLINK_WriteReg(R2, 0x00000001)  returns 0x00 (0000ms, 0691ms total)
T0DE0 001:051 JLINK_WriteReg(R3, 0x00000000)  returns 0x00 (0000ms, 0691ms total)
T0DE0 001:051 JLINK_WriteReg(R4, 0x00000000)  returns 0x00 (0000ms, 0691ms total)
T0DE0 001:051 JLINK_WriteReg(R5, 0x00000000)  returns 0x00 (0000ms, 0691ms total)
T0DE0 001:051 JLINK_WriteReg(R6, 0x00000000)  returns 0x00 (0000ms, 0691ms total)
T0DE0 001:051 JLINK_WriteReg(R7, 0x00000000)  returns 0x00 (0000ms, 0691ms total)
T0DE0 001:051 JLINK_WriteReg(R8, 0x00000000)  returns 0x00 (0000ms, 0691ms total)
T0DE0 001:051 JLINK_WriteReg(R9, 0x20000160)  returns 0x00 (0000ms, 0691ms total)
T0DE0 001:051 JLINK_WriteReg(R10, 0x00000000)  returns 0x00 (0000ms, 0691ms total)
T0DE0 001:051 JLINK_WriteReg(R11, 0x00000000)  returns 0x00 (0000ms, 0691ms total)
T0DE0 001:051 JLINK_WriteReg(R12, 0x00000000)  returns 0x00 (0000ms, 0691ms total)
T0DE0 001:051 JLINK_WriteReg(R13 (SP), 0x20001000)  returns 0x00 (0001ms, 0692ms total)
T0DE0 001:052 JLINK_WriteReg(R14, 0x20000001)  returns 0x00 (0000ms, 0692ms total)
T0DE0 001:052 JLINK_WriteReg(R15 (PC), 0x2000006A)  returns 0x00 (0000ms, 0692ms total)
T0DE0 001:052 JLINK_WriteReg(XPSR, 0x01000000)  returns 0x00 (0000ms, 0692ms total)
T0DE0 001:052 JLINK_WriteReg(MSP, 0x20001000)  returns 0x00 (0000ms, 0692ms total)
T0DE0 001:052 JLINK_WriteReg(PSP, 0x20001000)  returns 0x00 (0000ms, 0692ms total)
T0DE0 001:052 JLINK_WriteReg(CFBP, 0x00000000)  returns 0x00 (0000ms, 0692ms total)
T0DE0 001:052 JLINK_SetBPEx(Addr = 0x20000000, Type = 0xFFFFFFF2)  returns 0x00000003 (0000ms, 0692ms total)
T0DE0 001:052 JLINK_Go() -- CPU_ReadMem(4 bytes @ 0xE0001000) (0001ms, 0693ms total)
T0DE0 001:053 JLINK_IsHalted() -- CPU_ReadMem(2 bytes @ 0x20000000)  returns TRUE (0002ms, 0695ms total)
T0DE0 001:055 JLINK_ReadReg(R15 (PC))  returns 0x20000000 (0000ms, 0693ms total)
T0DE0 001:055 JLINK_ClrBPEx(BPHandle = 0x00000003)  returns 0x00 (0000ms, 0693ms total)
T0DE0 001:055 JLINK_ReadReg(R0)  returns 0x00000000 (0000ms, 0693ms total)
T0DE0 001:060 JLINK_WriteMem(0x20000000, 0x0164 Bytes, ...) - Data: 00 BE 0A E0 0D 78 2D 06 68 40 08 24 40 00 00 D3 ... -- CPU_WriteMem(356 bytes @ 0x20000000)  returns 0x164 (0003ms, 0696ms total)
T0DE0 001:063 JLINK_WriteReg(R0, 0x08000000)  returns 0x00 (0000ms, 0696ms total)
T0DE0 001:063 JLINK_WriteReg(R1, 0x00B71B00)  returns 0x00 (0000ms, 0696ms total)
T0DE0 001:063 JLINK_WriteReg(R2, 0x00000002)  returns 0x00 (0000ms, 0696ms total)
T0DE0 001:063 JLINK_WriteReg(R3, 0x00000000)  returns 0x00 (0000ms, 0696ms total)
T0DE0 001:063 JLINK_WriteReg(R4, 0x00000000)  returns 0x00 (0000ms, 0696ms total)
T0DE0 001:063 JLINK_WriteReg(R5, 0x00000000)  returns 0x00 (0000ms, 0696ms total)
T0DE0 001:063 JLINK_WriteReg(R6, 0x00000000)  returns 0x00 (0000ms, 0696ms total)
T0DE0 001:063 JLINK_WriteReg(R7, 0x00000000)  returns 0x00 (0000ms, 0696ms total)
T0DE0 001:063 JLINK_WriteReg(R8, 0x00000000)  returns 0x00 (0000ms, 0696ms total)
T0DE0 001:063 JLINK_WriteReg(R9, 0x20000160)  returns 0x00 (0000ms, 0696ms total)
T0DE0 001:063 JLINK_WriteReg(R10, 0x00000000)  returns 0x00 (0000ms, 0696ms total)
T0DE0 001:063 JLINK_WriteReg(R11, 0x00000000)  returns 0x00 (0000ms, 0696ms total)
T0DE0 001:063 JLINK_WriteReg(R12, 0x00000000)  returns 0x00 (0000ms, 0696ms total)
T0DE0 001:063 JLINK_WriteReg(R13 (SP), 0x20001000)  returns 0x00 (0000ms, 0696ms total)
T0DE0 001:063 JLINK_WriteReg(R14, 0x20000001)  returns 0x00 (0000ms, 0696ms total)
T0DE0 001:063 JLINK_WriteReg(R15 (PC), 0x20000038)  returns 0x00 (0000ms, 0696ms total)
T0DE0 001:063 JLINK_WriteReg(XPSR, 0x01000000)  returns 0x00 (0000ms, 0696ms total)
T0DE0 001:063 JLINK_WriteReg(MSP, 0x20001000)  returns 0x00 (0000ms, 0696ms total)
T0DE0 001:063 JLINK_WriteReg(PSP, 0x20001000)  returns 0x00 (0000ms, 0696ms total)
T0DE0 001:063 JLINK_WriteReg(CFBP, 0x00000000)  returns 0x00 (0000ms, 0696ms total)
T0DE0 001:063 JLINK_SetBPEx(Addr = 0x20000000, Type = 0xFFFFFFF2) -- CPU_ReadMem(2 bytes @ 0x20000000)  returns 0x00000004 (0000ms, 0696ms total)
T0DE0 001:063 JLINK_Go() -- CPU_WriteMem(2 bytes @ 0x20000000) -- CPU_ReadMem(4 bytes @ 0xE0001000) (0002ms, 0698ms total)
T0DE0 001:065 JLINK_IsHalted() -- CPU_ReadMem(2 bytes @ 0x20000000)  returns TRUE (0002ms, 0700ms total)
T0DE0 001:067 JLINK_ReadReg(R15 (PC))  returns 0x20000000 (0000ms, 0698ms total)
T0DE0 001:067 JLINK_ClrBPEx(BPHandle = 0x00000004)  returns 0x00 (0000ms, 0698ms total)
T0DE0 001:067 JLINK_ReadReg(R0)  returns 0x00000000 (0000ms, 0698ms total)
T0DE0 001:068 JLINK_WriteMem(0x20000164, 0x0400 Bytes, ...) - Data: 90 2B 00 20 45 01 00 08 D5 4D 00 08 31 48 00 08 ... -- CPU_WriteMem(1024 bytes @ 0x20000164)  returns 0x400 (0005ms, 0703ms total)
T0DE0 001:073 JLINK_WriteReg(R0, 0x08000000)  returns 0x00 (0000ms, 0703ms total)
T0DE0 001:073 JLINK_WriteReg(R1, 0x00000400)  returns 0x00 (0000ms, 0703ms total)
T0DE0 001:073 JLINK_WriteReg(R2, 0x20000164)  returns 0x00 (0001ms, 0704ms total)
T0DE0 001:074 JLINK_WriteReg(R3, 0x00000000)  returns 0x00 (0000ms, 0704ms total)
T0DE0 001:074 JLINK_WriteReg(R4, 0x00000000)  returns 0x00 (0000ms, 0704ms total)
T0DE0 001:074 JLINK_WriteReg(R5, 0x00000000)  returns 0x00 (0000ms, 0704ms total)
T0DE0 001:074 JLINK_WriteReg(R6, 0x00000000)  returns 0x00 (0000ms, 0704ms total)
T0DE0 001:074 JLINK_WriteReg(R7, 0x00000000)  returns 0x00 (0000ms, 0704ms total)
T0DE0 001:074 JLINK_WriteReg(R8, 0x00000000)  returns 0x00 (0000ms, 0704ms total)
T0DE0 001:074 JLINK_WriteReg(R9, 0x20000160)  returns 0x00 (0000ms, 0704ms total)
T0DE0 001:074 JLINK_WriteReg(R10, 0x00000000)  returns 0x00 (0000ms, 0704ms total)
T0DE0 001:074 JLINK_WriteReg(R11, 0x00000000)  returns 0x00 (0000ms, 0704ms total)
T0DE0 001:074 JLINK_WriteReg(R12, 0x00000000)  returns 0x00 (0000ms, 0704ms total)
T0DE0 001:074 JLINK_WriteReg(R13 (SP), 0x20001000)  returns 0x00 (0000ms, 0704ms total)
T0DE0 001:074 JLINK_WriteReg(R14, 0x20000001)  returns 0x00 (0000ms, 0704ms total)
T0DE0 001:074 JLINK_WriteReg(R15 (PC), 0x200000F4)  returns 0x00 (0000ms, 0704ms total)
T0DE0 001:074 JLINK_WriteReg(XPSR, 0x01000000)  returns 0x00 (0000ms, 0704ms total)
T0DE0 001:074 JLINK_WriteReg(MSP, 0x20001000)  returns 0x00 (0000ms, 0704ms total)
T0DE0 001:074 JLINK_WriteReg(PSP, 0x20001000)  returns 0x00 (0000ms, 0704ms total)
T0DE0 001:074 JLINK_WriteReg(CFBP, 0x00000000)  returns 0x00 (0000ms, 0704ms total)
T0DE0 001:074 JLINK_SetBPEx(Addr = 0x20000000, Type = 0xFFFFFFF2)  returns 0x00000005 (0000ms, 0704ms total)
T0DE0 001:074 JLINK_Go() -- CPU_ReadMem(4 bytes @ 0xE0001000) (0001ms, 0705ms total)
T0DE0 001:075 JLINK_IsHalted()  returns FALSE (0001ms, 0706ms total)
T0DE0 001:148 JLINK_IsHalted() -- CPU_ReadMem(2 bytes @ 0x20000000)  returns TRUE (0002ms, 0707ms total)
T0DE0 001:150 JLINK_ReadReg(R15 (PC))  returns 0x20000000 (0000ms, 0705ms total)
T0DE0 001:150 JLINK_ClrBPEx(BPHandle = 0x00000005)  returns 0x00 (0000ms, 0705ms total)
T0DE0 001:150 JLINK_ReadReg(R0)  returns 0x00000000 (0000ms, 0705ms total)
T0DE0 001:150 JLINK_WriteMem(0x20000164, 0x0400 Bytes, ...) - Data: BD E8 F0 8F 40 46 21 46 F9 E7 00 1B 61 EB 02 01 ... -- CPU_WriteMem(1024 bytes @ 0x20000164)  returns 0x400 (0006ms, 0711ms total)
T0DE0 001:156 JLINK_WriteReg(R0, 0x08000400)  returns 0x00 (0000ms, 0711ms total)
T0DE0 001:156 JLINK_WriteReg(R1, 0x00000400)  returns 0x00 (0000ms, 0711ms total)
T0DE0 001:156 JLINK_WriteReg(R2, 0x20000164)  returns 0x00 (0000ms, 0711ms total)
T0DE0 001:156 JLINK_WriteReg(R3, 0x00000000)  returns 0x00 (0000ms, 0711ms total)
T0DE0 001:156 JLINK_WriteReg(R4, 0x00000000)  returns 0x00 (0000ms, 0711ms total)
T0DE0 001:156 JLINK_WriteReg(R5, 0x00000000)  returns 0x00 (0000ms, 0711ms total)
T0DE0 001:156 JLINK_WriteReg(R6, 0x00000000)  returns 0x00 (0000ms, 0711ms total)
T0DE0 001:156 JLINK_WriteReg(R7, 0x00000000)  returns 0x00 (0000ms, 0711ms total)
T0DE0 001:156 JLINK_WriteReg(R8, 0x00000000)  returns 0x00 (0000ms, 0711ms total)
T0DE0 001:156 JLINK_WriteReg(R9, 0x20000160)  returns 0x00 (0000ms, 0711ms total)
T0DE0 001:156 JLINK_WriteReg(R10, 0x00000000)  returns 0x00 (0000ms, 0711ms total)
T0DE0 001:156 JLINK_WriteReg(R11, 0x00000000)  returns 0x00 (0000ms, 0711ms total)
T0DE0 001:156 JLINK_WriteReg(R12, 0x00000000)  returns 0x00 (0000ms, 0711ms total)
T0DE0 001:156 JLINK_WriteReg(R13 (SP), 0x20001000)  returns 0x00 (0000ms, 0711ms total)
T0DE0 001:156 JLINK_WriteReg(R14, 0x20000001)  returns 0x00 (0000ms, 0711ms total)
T0DE0 001:156 JLINK_WriteReg(R15 (PC), 0x200000F4)  returns 0x00 (0000ms, 0711ms total)
T0DE0 001:156 JLINK_WriteReg(XPSR, 0x01000000)  returns 0x00 (0000ms, 0711ms total)
T0DE0 001:156 JLINK_WriteReg(MSP, 0x20001000)  returns 0x00 (0000ms, 0711ms total)
T0DE0 001:156 JLINK_WriteReg(PSP, 0x20001000)  returns 0x00 (0000ms, 0711ms total)
T0DE0 001:156 JLINK_WriteReg(CFBP, 0x00000000)  returns 0x00 (0000ms, 0711ms total)
T0DE0 001:156 JLINK_SetBPEx(Addr = 0x20000000, Type = 0xFFFFFFF2)  returns 0x00000006 (0000ms, 0711ms total)
T0DE0 001:156 JLINK_Go() -- CPU_ReadMem(4 bytes @ 0xE0001000) (0002ms, 0713ms total)
T0DE0 001:158 JLINK_IsHalted()  returns FALSE (0000ms, 0713ms total)
T0DE0 001:235 JLINK_IsHalted() -- CPU_ReadMem(2 bytes @ 0x20000000)  returns TRUE (0002ms, 0715ms total)
T0DE0 001:237 JLINK_ReadReg(R15 (PC))  returns 0x20000000 (0000ms, 0713ms total)
T0DE0 001:237 JLINK_ClrBPEx(BPHandle = 0x00000006)  returns 0x00 (0000ms, 0713ms total)
T0DE0 001:237 JLINK_ReadReg(R0)  returns 0x00000000 (0000ms, 0713ms total)
T0DE0 001:238 JLINK_WriteMem(0x20000164, 0x0400 Bytes, ...) - Data: C1 F1 00 41 81 42 70 47 00 28 01 DB C0 F1 00 40 ... -- CPU_WriteMem(1024 bytes @ 0x20000164)  returns 0x400 (0005ms, 0718ms total)
T0DE0 001:243 JLINK_WriteReg(R0, 0x08000800)  returns 0x00 (0000ms, 0718ms total)
T0DE0 001:243 JLINK_WriteReg(R1, 0x00000400)  returns 0x00 (0000ms, 0718ms total)
T0DE0 001:243 JLINK_WriteReg(R2, 0x20000164)  returns 0x00 (0001ms, 0719ms total)
T0DE0 001:244 JLINK_WriteReg(R3, 0x00000000)  returns 0x00 (0000ms, 0719ms total)
T0DE0 001:244 JLINK_WriteReg(R4, 0x00000000)  returns 0x00 (0000ms, 0719ms total)
T0DE0 001:244 JLINK_WriteReg(R5, 0x00000000)  returns 0x00 (0000ms, 0719ms total)
T0DE0 001:244 JLINK_WriteReg(R6, 0x00000000)  returns 0x00 (0000ms, 0719ms total)
T0DE0 001:244 JLINK_WriteReg(R7, 0x00000000)  returns 0x00 (0000ms, 0719ms total)
T0DE0 001:244 JLINK_WriteReg(R8, 0x00000000)  returns 0x00 (0000ms, 0719ms total)
T0DE0 001:244 JLINK_WriteReg(R9, 0x20000160)  returns 0x00 (0000ms, 0719ms total)
T0DE0 001:244 JLINK_WriteReg(R10, 0x00000000)  returns 0x00 (0000ms, 0719ms total)
T0DE0 001:244 JLINK_WriteReg(R11, 0x00000000)  returns 0x00 (0000ms, 0719ms total)
T0DE0 001:244 JLINK_WriteReg(R12, 0x00000000)  returns 0x00 (0000ms, 0719ms total)
T0DE0 001:244 JLINK_WriteReg(R13 (SP), 0x20001000)  returns 0x00 (0000ms, 0719ms total)
T0DE0 001:244 JLINK_WriteReg(R14, 0x20000001)  returns 0x00 (0000ms, 0719ms total)
T0DE0 001:244 JLINK_WriteReg(R15 (PC), 0x200000F4)  returns 0x00 (0000ms, 0719ms total)
T0DE0 001:244 JLINK_WriteReg(XPSR, 0x01000000)  returns 0x00 (0000ms, 0719ms total)
T0DE0 001:244 JLINK_WriteReg(MSP, 0x20001000)  returns 0x00 (0000ms, 0719ms total)
T0DE0 001:244 JLINK_WriteReg(PSP, 0x20001000)  returns 0x00 (0000ms, 0719ms total)
T0DE0 001:244 JLINK_WriteReg(CFBP, 0x00000000)  returns 0x00 (0000ms, 0719ms total)
T0DE0 001:244 JLINK_SetBPEx(Addr = 0x20000000, Type = 0xFFFFFFF2)  returns 0x00000007 (0000ms, 0719ms total)
T0DE0 001:244 JLINK_Go() -- CPU_ReadMem(4 bytes @ 0xE0001000) (0001ms, 0720ms total)
T0DE0 001:245 JLINK_IsHalted()  returns FALSE (0001ms, 0721ms total)
T0DE0 001:316 JLINK_IsHalted() -- CPU_ReadMem(2 bytes @ 0x20000000)  returns TRUE (0002ms, 0722ms total)
T0DE0 001:318 JLINK_ReadReg(R15 (PC))  returns 0x20000000 (0000ms, 0720ms total)
T0DE0 001:318 JLINK_ClrBPEx(BPHandle = 0x00000007)  returns 0x00 (0000ms, 0720ms total)
T0DE0 001:318 JLINK_ReadReg(R0)  returns 0x00000000 (0000ms, 0720ms total)
T0DE0 001:320 JLINK_WriteMem(0x20000164, 0x0400 Bytes, ...) - Data: 49 F9 00 BF 0F 48 00 F0 AB F8 00 28 FA D1 0D 48 ... -- CPU_WriteMem(1024 bytes @ 0x20000164)  returns 0x400 (0006ms, 0726ms total)
T0DE0 001:326 JLINK_WriteReg(R0, 0x08000C00)  returns 0x00 (0000ms, 0726ms total)
T0DE0 001:326 JLINK_WriteReg(R1, 0x00000400)  returns 0x00 (0000ms, 0726ms total)
T0DE0 001:326 JLINK_WriteReg(R2, 0x20000164)  returns 0x00 (0000ms, 0726ms total)
T0DE0 001:326 JLINK_WriteReg(R3, 0x00000000)  returns 0x00 (0000ms, 0726ms total)
T0DE0 001:326 JLINK_WriteReg(R4, 0x00000000)  returns 0x00 (0000ms, 0726ms total)
T0DE0 001:326 JLINK_WriteReg(R5, 0x00000000)  returns 0x00 (0000ms, 0726ms total)
T0DE0 001:326 JLINK_WriteReg(R6, 0x00000000)  returns 0x00 (0000ms, 0726ms total)
T0DE0 001:326 JLINK_WriteReg(R7, 0x00000000)  returns 0x00 (0000ms, 0726ms total)
T0DE0 001:326 JLINK_WriteReg(R8, 0x00000000)  returns 0x00 (0000ms, 0726ms total)
T0DE0 001:326 JLINK_WriteReg(R9, 0x20000160)  returns 0x00 (0000ms, 0726ms total)
T0DE0 001:326 JLINK_WriteReg(R10, 0x00000000)  returns 0x00 (0000ms, 0726ms total)
T0DE0 001:326 JLINK_WriteReg(R11, 0x00000000)  returns 0x00 (0000ms, 0726ms total)
T0DE0 001:326 JLINK_WriteReg(R12, 0x00000000)  returns 0x00 (0000ms, 0726ms total)
T0DE0 001:326 JLINK_WriteReg(R13 (SP), 0x20001000)  returns 0x00 (0000ms, 0726ms total)
T0DE0 001:326 JLINK_WriteReg(R14, 0x20000001)  returns 0x00 (0000ms, 0726ms total)
T0DE0 001:326 JLINK_WriteReg(R15 (PC), 0x200000F4)  returns 0x00 (0000ms, 0726ms total)
T0DE0 001:326 JLINK_WriteReg(XPSR, 0x01000000)  returns 0x00 (0000ms, 0726ms total)
T0DE0 001:326 JLINK_WriteReg(MSP, 0x20001000)  returns 0x00 (0000ms, 0726ms total)
T0DE0 001:326 JLINK_WriteReg(PSP, 0x20001000)  returns 0x00 (0000ms, 0726ms total)
T0DE0 001:326 JLINK_WriteReg(CFBP, 0x00000000)  returns 0x00 (0000ms, 0726ms total)
T0DE0 001:326 JLINK_SetBPEx(Addr = 0x20000000, Type = 0xFFFFFFF2)  returns 0x00000008 (0000ms, 0726ms total)
T0DE0 001:326 JLINK_Go() -- CPU_ReadMem(4 bytes @ 0xE0001000) (0001ms, 0727ms total)
T0DE0 001:327 JLINK_IsHalted()  returns FALSE (0001ms, 0728ms total)
T0DE0 001:403 JLINK_IsHalted() -- CPU_ReadMem(2 bytes @ 0x20000000)  returns TRUE (0002ms, 0729ms total)
T0DE0 001:405 JLINK_ReadReg(R15 (PC))  returns 0x20000000 (0000ms, 0727ms total)
T0DE0 001:405 JLINK_ClrBPEx(BPHandle = 0x00000008)  returns 0x00 (0000ms, 0727ms total)
T0DE0 001:405 JLINK_ReadReg(R0)  returns 0x00000000 (0000ms, 0727ms total)
T0DE0 001:405 JLINK_WriteMem(0x20000164, 0x0400 Bytes, ...) - Data: 00 BF 00 BF 00 BF 00 BF 00 BF 00 BF 00 BF 00 BF ... -- CPU_WriteMem(1024 bytes @ 0x20000164)  returns 0x400 (0006ms, 0733ms total)
T0DE0 001:411 JLINK_WriteReg(R0, 0x08001000)  returns 0x00 (0000ms, 0733ms total)
T0DE0 001:411 JLINK_WriteReg(R1, 0x00000400)  returns 0x00 (0000ms, 0733ms total)
T0DE0 001:411 JLINK_WriteReg(R2, 0x20000164)  returns 0x00 (0000ms, 0733ms total)
T0DE0 001:411 JLINK_WriteReg(R3, 0x00000000)  returns 0x00 (0000ms, 0733ms total)
T0DE0 001:411 JLINK_WriteReg(R4, 0x00000000)  returns 0x00 (0000ms, 0733ms total)
T0DE0 001:411 JLINK_WriteReg(R5, 0x00000000)  returns 0x00 (0000ms, 0733ms total)
T0DE0 001:411 JLINK_WriteReg(R6, 0x00000000)  returns 0x00 (0000ms, 0733ms total)
T0DE0 001:411 JLINK_WriteReg(R7, 0x00000000)  returns 0x00 (0000ms, 0733ms total)
T0DE0 001:411 JLINK_WriteReg(R8, 0x00000000)  returns 0x00 (0000ms, 0733ms total)
T0DE0 001:411 JLINK_WriteReg(R9, 0x20000160)  returns 0x00 (0000ms, 0733ms total)
T0DE0 001:411 JLINK_WriteReg(R10, 0x00000000)  returns 0x00 (0000ms, 0733ms total)
T0DE0 001:411 JLINK_WriteReg(R11, 0x00000000)  returns 0x00 (0000ms, 0733ms total)
T0DE0 001:411 JLINK_WriteReg(R12, 0x00000000)  returns 0x00 (0000ms, 0733ms total)
T0DE0 001:411 JLINK_WriteReg(R13 (SP), 0x20001000)  returns 0x00 (0000ms, 0733ms total)
T0DE0 001:411 JLINK_WriteReg(R14, 0x20000001)  returns 0x00 (0000ms, 0733ms total)
T0DE0 001:411 JLINK_WriteReg(R15 (PC), 0x200000F4)  returns 0x00 (0000ms, 0733ms total)
T0DE0 001:411 JLINK_WriteReg(XPSR, 0x01000000)  returns 0x00 (0000ms, 0733ms total)
T0DE0 001:411 JLINK_WriteReg(MSP, 0x20001000)  returns 0x00 (0000ms, 0733ms total)
T0DE0 001:411 JLINK_WriteReg(PSP, 0x20001000)  returns 0x00 (0000ms, 0733ms total)
T0DE0 001:411 JLINK_WriteReg(CFBP, 0x00000000)  returns 0x00 (0000ms, 0733ms total)
T0DE0 001:411 JLINK_SetBPEx(Addr = 0x20000000, Type = 0xFFFFFFF2)  returns 0x00000009 (0000ms, 0733ms total)
T0DE0 001:411 JLINK_Go() -- CPU_ReadMem(4 bytes @ 0xE0001000) (0002ms, 0735ms total)
T0DE0 001:413 JLINK_IsHalted()  returns FALSE (0000ms, 0735ms total)
T0DE0 001:493 JLINK_IsHalted() -- CPU_ReadMem(2 bytes @ 0x20000000)  returns TRUE (0002ms, 0737ms total)
T0DE0 001:495 JLINK_ReadReg(R15 (PC))  returns 0x20000000 (0000ms, 0735ms total)
T0DE0 001:495 JLINK_ClrBPEx(BPHandle = 0x00000009)  returns 0x00 (0000ms, 0735ms total)
T0DE0 001:495 JLINK_ReadReg(R0)  returns 0x00000000 (0000ms, 0735ms total)
T0DE0 001:495 JLINK_WriteMem(0x20000164, 0x0400 Bytes, ...) - Data: 40 48 C0 8B 01 05 3F 48 B0 F9 20 00 00 FB 03 F5 ... -- CPU_WriteMem(1024 bytes @ 0x20000164)  returns 0x400 (0006ms, 0741ms total)
T0DE0 001:501 JLINK_WriteReg(R0, 0x08001400)  returns 0x00 (0000ms, 0741ms total)
T0DE0 001:501 JLINK_WriteReg(R1, 0x00000400)  returns 0x00 (0000ms, 0741ms total)
T0DE0 001:501 JLINK_WriteReg(R2, 0x20000164)  returns 0x00 (0000ms, 0741ms total)
T0DE0 001:501 JLINK_WriteReg(R3, 0x00000000)  returns 0x00 (0000ms, 0741ms total)
T0DE0 001:501 JLINK_WriteReg(R4, 0x00000000)  returns 0x00 (0000ms, 0741ms total)
T0DE0 001:501 JLINK_WriteReg(R5, 0x00000000)  returns 0x00 (0000ms, 0741ms total)
T0DE0 001:501 JLINK_WriteReg(R6, 0x00000000)  returns 0x00 (0000ms, 0741ms total)
T0DE0 001:501 JLINK_WriteReg(R7, 0x00000000)  returns 0x00 (0000ms, 0741ms total)
T0DE0 001:501 JLINK_WriteReg(R8, 0x00000000)  returns 0x00 (0000ms, 0741ms total)
T0DE0 001:501 JLINK_WriteReg(R9, 0x20000160)  returns 0x00 (0000ms, 0741ms total)
T0DE0 001:501 JLINK_WriteReg(R10, 0x00000000)  returns 0x00 (0000ms, 0741ms total)
T0DE0 001:501 JLINK_WriteReg(R11, 0x00000000)  returns 0x00 (0000ms, 0741ms total)
T0DE0 001:501 JLINK_WriteReg(R12, 0x00000000)  returns 0x00 (0000ms, 0741ms total)
T0DE0 001:501 JLINK_WriteReg(R13 (SP), 0x20001000)  returns 0x00 (0000ms, 0741ms total)
T0DE0 001:501 JLINK_WriteReg(R14, 0x20000001)  returns 0x00 (0000ms, 0741ms total)
T0DE0 001:501 JLINK_WriteReg(R15 (PC), 0x200000F4)  returns 0x00 (0000ms, 0741ms total)
T0DE0 001:501 JLINK_WriteReg(XPSR, 0x01000000)  returns 0x00 (0000ms, 0741ms total)
T0DE0 001:501 JLINK_WriteReg(MSP, 0x20001000)  returns 0x00 (0000ms, 0741ms total)
T0DE0 001:501 JLINK_WriteReg(PSP, 0x20001000)  returns 0x00 (0000ms, 0741ms total)
T0DE0 001:501 JLINK_WriteReg(CFBP, 0x00000000)  returns 0x00 (0001ms, 0742ms total)
T0DE0 001:502 JLINK_SetBPEx(Addr = 0x20000000, Type = 0xFFFFFFF2)  returns 0x0000000A (0000ms, 0742ms total)
T0DE0 001:502 JLINK_Go() -- CPU_ReadMem(4 bytes @ 0xE0001000) (0001ms, 0743ms total)
T0DE0 001:503 JLINK_IsHalted()  returns FALSE (0000ms, 0743ms total)
T0DE0 001:575 JLINK_IsHalted() -- CPU_ReadMem(2 bytes @ 0x20000000)  returns TRUE (0002ms, 0745ms total)
T0DE0 001:577 JLINK_ReadReg(R15 (PC))  returns 0x20000000 (0000ms, 0743ms total)
T0DE0 001:577 JLINK_ClrBPEx(BPHandle = 0x0000000A)  returns 0x00 (0000ms, 0743ms total)
T0DE0 001:577 JLINK_ReadReg(R0)  returns 0x00000000 (0000ms, 0743ms total)
T0DE0 001:577 JLINK_WriteMem(0x20000164, 0x0400 Bytes, ...) - Data: 00 0C 01 40 10 B5 00 20 0F 49 08 60 0F 48 00 68 ... -- CPU_WriteMem(1024 bytes @ 0x20000164)  returns 0x400 (0006ms, 0749ms total)
T0DE0 001:583 JLINK_WriteReg(R0, 0x08001800)  returns 0x00 (0000ms, 0749ms total)
T0DE0 001:583 JLINK_WriteReg(R1, 0x00000400)  returns 0x00 (0000ms, 0749ms total)
T0DE0 001:583 JLINK_WriteReg(R2, 0x20000164)  returns 0x00 (0000ms, 0749ms total)
T0DE0 001:583 JLINK_WriteReg(R3, 0x00000000)  returns 0x00 (0000ms, 0749ms total)
T0DE0 001:583 JLINK_WriteReg(R4, 0x00000000)  returns 0x00 (0000ms, 0749ms total)
T0DE0 001:583 JLINK_WriteReg(R5, 0x00000000)  returns 0x00 (0000ms, 0749ms total)
T0DE0 001:583 JLINK_WriteReg(R6, 0x00000000)  returns 0x00 (0000ms, 0749ms total)
T0DE0 001:583 JLINK_WriteReg(R7, 0x00000000)  returns 0x00 (0000ms, 0749ms total)
T0DE0 001:583 JLINK_WriteReg(R8, 0x00000000)  returns 0x00 (0000ms, 0749ms total)
T0DE0 001:583 JLINK_WriteReg(R9, 0x20000160)  returns 0x00 (0000ms, 0749ms total)
T0DE0 001:583 JLINK_WriteReg(R10, 0x00000000)  returns 0x00 (0000ms, 0749ms total)
T0DE0 001:583 JLINK_WriteReg(R11, 0x00000000)  returns 0x00 (0000ms, 0749ms total)
T0DE0 001:583 JLINK_WriteReg(R12, 0x00000000)  returns 0x00 (0000ms, 0749ms total)
T0DE0 001:583 JLINK_WriteReg(R13 (SP), 0x20001000)  returns 0x00 (0000ms, 0749ms total)
T0DE0 001:583 JLINK_WriteReg(R14, 0x20000001)  returns 0x00 (0000ms, 0749ms total)
T0DE0 001:583 JLINK_WriteReg(R15 (PC), 0x200000F4)  returns 0x00 (0000ms, 0749ms total)
T0DE0 001:583 JLINK_WriteReg(XPSR, 0x01000000)  returns 0x00 (0000ms, 0749ms total)
T0DE0 001:583 JLINK_WriteReg(MSP, 0x20001000)  returns 0x00 (0000ms, 0749ms total)
T0DE0 001:583 JLINK_WriteReg(PSP, 0x20001000)  returns 0x00 (0000ms, 0749ms total)
T0DE0 001:583 JLINK_WriteReg(CFBP, 0x00000000)  returns 0x00 (0000ms, 0749ms total)
T0DE0 001:583 JLINK_SetBPEx(Addr = 0x20000000, Type = 0xFFFFFFF2)  returns 0x0000000B (0000ms, 0749ms total)
T0DE0 001:583 JLINK_Go() -- CPU_ReadMem(4 bytes @ 0xE0001000) (0002ms, 0751ms total)
T0DE0 001:585 JLINK_IsHalted()  returns FALSE (0000ms, 0751ms total)
T0DE0 001:704 JLINK_IsHalted() -- CPU_ReadMem(2 bytes @ 0x20000000)  returns TRUE (0002ms, 0753ms total)
T0DE0 001:706 JLINK_ReadReg(R15 (PC))  returns 0x20000000 (0000ms, 0751ms total)
T0DE0 001:706 JLINK_ClrBPEx(BPHandle = 0x0000000B)  returns 0x00 (0000ms, 0751ms total)
T0DE0 001:706 JLINK_ReadReg(R0)  returns 0x00000000 (0000ms, 0751ms total)
T0DE0 001:706 JLINK_WriteMem(0x20000164, 0x0400 Bytes, ...) - Data: DD FF 48 A2 01 21 08 46 08 F0 50 F8 3B A2 05 21 ... -- CPU_WriteMem(1024 bytes @ 0x20000164)  returns 0x400 (0006ms, 0757ms total)
T0DE0 001:712 JLINK_WriteReg(R0, 0x08001C00)  returns 0x00 (0000ms, 0757ms total)
T0DE0 001:712 JLINK_WriteReg(R1, 0x00000400)  returns 0x00 (0000ms, 0757ms total)
T0DE0 001:712 JLINK_WriteReg(R2, 0x20000164)  returns 0x00 (0000ms, 0757ms total)
T0DE0 001:712 JLINK_WriteReg(R3, 0x00000000)  returns 0x00 (0000ms, 0757ms total)
T0DE0 001:712 JLINK_WriteReg(R4, 0x00000000)  returns 0x00 (0000ms, 0757ms total)
T0DE0 001:712 JLINK_WriteReg(R5, 0x00000000)  returns 0x00 (0000ms, 0757ms total)
T0DE0 001:712 JLINK_WriteReg(R6, 0x00000000)  returns 0x00 (0000ms, 0757ms total)
T0DE0 001:712 JLINK_WriteReg(R7, 0x00000000)  returns 0x00 (0000ms, 0757ms total)
T0DE0 001:712 JLINK_WriteReg(R8, 0x00000000)  returns 0x00 (0001ms, 0758ms total)
T0DE0 001:713 JLINK_WriteReg(R9, 0x20000160)  returns 0x00 (0000ms, 0758ms total)
T0DE0 001:713 JLINK_WriteReg(R10, 0x00000000)  returns 0x00 (0000ms, 0758ms total)
T0DE0 001:713 JLINK_WriteReg(R11, 0x00000000)  returns 0x00 (0000ms, 0758ms total)
T0DE0 001:713 JLINK_WriteReg(R12, 0x00000000)  returns 0x00 (0000ms, 0758ms total)
T0DE0 001:713 JLINK_WriteReg(R13 (SP), 0x20001000)  returns 0x00 (0000ms, 0758ms total)
T0DE0 001:713 JLINK_WriteReg(R14, 0x20000001)  returns 0x00 (0000ms, 0758ms total)
T0DE0 001:713 JLINK_WriteReg(R15 (PC), 0x200000F4)  returns 0x00 (0000ms, 0758ms total)
T0DE0 001:713 JLINK_WriteReg(XPSR, 0x01000000)  returns 0x00 (0000ms, 0758ms total)
T0DE0 001:713 JLINK_WriteReg(MSP, 0x20001000)  returns 0x00 (0000ms, 0758ms total)
T0DE0 001:713 JLINK_WriteReg(PSP, 0x20001000)  returns 0x00 (0000ms, 0758ms total)
T0DE0 001:713 JLINK_WriteReg(CFBP, 0x00000000)  returns 0x00 (0000ms, 0758ms total)
T0DE0 001:713 JLINK_SetBPEx(Addr = 0x20000000, Type = 0xFFFFFFF2)  returns 0x0000000C (0000ms, 0758ms total)
T0DE0 001:713 JLINK_Go() -- CPU_ReadMem(4 bytes @ 0xE0001000) (0001ms, 0759ms total)
T0DE0 001:714 JLINK_IsHalted()  returns FALSE (0000ms, 0759ms total)
T0DE0 001:806 JLINK_IsHalted() -- CPU_ReadMem(2 bytes @ 0x20000000)  returns TRUE (0001ms, 0760ms total)
T0DE0 001:807 JLINK_ReadReg(R15 (PC))  returns 0x20000000 (0001ms, 0760ms total)
T0DE0 001:808 JLINK_ClrBPEx(BPHandle = 0x0000000C)  returns 0x00 (0000ms, 0760ms total)
T0DE0 001:808 JLINK_ReadReg(R0)  returns 0x00000000 (0000ms, 0760ms total)
T0DE0 001:808 JLINK_WriteMem(0x20000164, 0x0400 Bytes, ...) - Data: 36 00 00 20 3C 00 00 20 40 00 00 20 43 4F 5F 5A ... -- CPU_WriteMem(1024 bytes @ 0x20000164)  returns 0x400 (0006ms, 0766ms total)
T0DE0 001:814 JLINK_WriteReg(R0, 0x08002000)  returns 0x00 (0000ms, 0766ms total)
T0DE0 001:814 JLINK_WriteReg(R1, 0x00000400)  returns 0x00 (0000ms, 0766ms total)
T0DE0 001:814 JLINK_WriteReg(R2, 0x20000164)  returns 0x00 (0000ms, 0766ms total)
T0DE0 001:814 JLINK_WriteReg(R3, 0x00000000)  returns 0x00 (0000ms, 0766ms total)
T0DE0 001:814 JLINK_WriteReg(R4, 0x00000000)  returns 0x00 (0000ms, 0766ms total)
T0DE0 001:814 JLINK_WriteReg(R5, 0x00000000)  returns 0x00 (0000ms, 0766ms total)
T0DE0 001:814 JLINK_WriteReg(R6, 0x00000000)  returns 0x00 (0000ms, 0766ms total)
T0DE0 001:814 JLINK_WriteReg(R7, 0x00000000)  returns 0x00 (0000ms, 0766ms total)
T0DE0 001:814 JLINK_WriteReg(R8, 0x00000000)  returns 0x00 (0000ms, 0766ms total)
T0DE0 001:814 JLINK_WriteReg(R9, 0x20000160)  returns 0x00 (0000ms, 0766ms total)
T0DE0 001:814 JLINK_WriteReg(R10, 0x00000000)  returns 0x00 (0000ms, 0766ms total)
T0DE0 001:814 JLINK_WriteReg(R11, 0x00000000)  returns 0x00 (0000ms, 0766ms total)
T0DE0 001:814 JLINK_WriteReg(R12, 0x00000000)  returns 0x00 (0000ms, 0766ms total)
T0DE0 001:814 JLINK_WriteReg(R13 (SP), 0x20001000)  returns 0x00 (0000ms, 0766ms total)
T0DE0 001:814 JLINK_WriteReg(R14, 0x20000001)  returns 0x00 (0000ms, 0766ms total)
T0DE0 001:814 JLINK_WriteReg(R15 (PC), 0x200000F4)  returns 0x00 (0000ms, 0766ms total)
T0DE0 001:814 JLINK_WriteReg(XPSR, 0x01000000)  returns 0x00 (0000ms, 0766ms total)
T0DE0 001:814 JLINK_WriteReg(MSP, 0x20001000)  returns 0x00 (0000ms, 0766ms total)
T0DE0 001:814 JLINK_WriteReg(PSP, 0x20001000)  returns 0x00 (0000ms, 0766ms total)
T0DE0 001:814 JLINK_WriteReg(CFBP, 0x00000000)  returns 0x00 (0000ms, 0766ms total)
T0DE0 001:814 JLINK_SetBPEx(Addr = 0x20000000, Type = 0xFFFFFFF2)  returns 0x0000000D (0000ms, 0766ms total)
T0DE0 001:814 JLINK_Go() -- CPU_ReadMem(4 bytes @ 0xE0001000) (0002ms, 0768ms total)
T0DE0 001:816 JLINK_IsHalted()  returns FALSE (0000ms, 0768ms total)
T0DE0 001:905 JLINK_IsHalted() -- CPU_ReadMem(2 bytes @ 0x20000000)  returns TRUE (0002ms, 0770ms total)
T0DE0 001:907 JLINK_ReadReg(R15 (PC))  returns 0x20000000 (0000ms, 0768ms total)
T0DE0 001:907 JLINK_ClrBPEx(BPHandle = 0x0000000D)  returns 0x00 (0000ms, 0768ms total)
T0DE0 001:907 JLINK_ReadReg(R0)  returns 0x00000000 (0000ms, 0768ms total)
T0DE0 001:907 JLINK_WriteMem(0x20000164, 0x0400 Bytes, ...) - Data: 00 80 88 43 74 00 00 20 00 AA 8F 40 B8 1E 85 EB ... -- CPU_WriteMem(1024 bytes @ 0x20000164)  returns 0x400 (0006ms, 0774ms total)
T0DE0 001:913 JLINK_WriteReg(R0, 0x08002400)  returns 0x00 (0000ms, 0774ms total)
T0DE0 001:913 JLINK_WriteReg(R1, 0x00000400)  returns 0x00 (0000ms, 0774ms total)
T0DE0 001:913 JLINK_WriteReg(R2, 0x20000164)  returns 0x00 (0000ms, 0774ms total)
T0DE0 001:913 JLINK_WriteReg(R3, 0x00000000)  returns 0x00 (0000ms, 0774ms total)
T0DE0 001:913 JLINK_WriteReg(R4, 0x00000000)  returns 0x00 (0000ms, 0774ms total)
T0DE0 001:913 JLINK_WriteReg(R5, 0x00000000)  returns 0x00 (0000ms, 0774ms total)
T0DE0 001:913 JLINK_WriteReg(R6, 0x00000000)  returns 0x00 (0000ms, 0774ms total)
T0DE0 001:913 JLINK_WriteReg(R7, 0x00000000)  returns 0x00 (0000ms, 0774ms total)
T0DE0 001:913 JLINK_WriteReg(R8, 0x00000000)  returns 0x00 (0000ms, 0774ms total)
T0DE0 001:913 JLINK_WriteReg(R9, 0x20000160)  returns 0x00 (0000ms, 0774ms total)
T0DE0 001:913 JLINK_WriteReg(R10, 0x00000000)  returns 0x00 (0000ms, 0774ms total)
T0DE0 001:913 JLINK_WriteReg(R11, 0x00000000)  returns 0x00 (0000ms, 0774ms total)
T0DE0 001:913 JLINK_WriteReg(R12, 0x00000000)  returns 0x00 (0000ms, 0774ms total)
T0DE0 001:913 JLINK_WriteReg(R13 (SP), 0x20001000)  returns 0x00 (0000ms, 0774ms total)
T0DE0 001:913 JLINK_WriteReg(R14, 0x20000001)  returns 0x00 (0000ms, 0774ms total)
T0DE0 001:913 JLINK_WriteReg(R15 (PC), 0x200000F4)  returns 0x00 (0000ms, 0774ms total)
T0DE0 001:913 JLINK_WriteReg(XPSR, 0x01000000)  returns 0x00 (0000ms, 0774ms total)
T0DE0 001:913 JLINK_WriteReg(MSP, 0x20001000)  returns 0x00 (0000ms, 0774ms total)
T0DE0 001:913 JLINK_WriteReg(PSP, 0x20001000)  returns 0x00 (0000ms, 0774ms total)
T0DE0 001:913 JLINK_WriteReg(CFBP, 0x00000000)  returns 0x00 (0000ms, 0774ms total)
T0DE0 001:913 JLINK_SetBPEx(Addr = 0x20000000, Type = 0xFFFFFFF2)  returns 0x0000000E (0000ms, 0774ms total)
T0DE0 001:913 JLINK_Go() -- CPU_ReadMem(4 bytes @ 0xE0001000) (0001ms, 0775ms total)
T0DE0 001:915 JLINK_IsHalted()  returns FALSE (0000ms, 0776ms total)
T0DE0 002:013 JLINK_IsHalted() -- CPU_ReadMem(2 bytes @ 0x20000000)  returns TRUE (0002ms, 0778ms total)
T0DE0 002:015 JLINK_ReadReg(R15 (PC))  returns 0x20000000 (0000ms, 0776ms total)
T0DE0 002:015 JLINK_ClrBPEx(BPHandle = 0x0000000E)  returns 0x00 (0000ms, 0776ms total)
T0DE0 002:015 JLINK_ReadReg(R0)  returns 0x00000000 (0000ms, 0776ms total)
T0DE0 002:015 JLINK_WriteMem(0x20000164, 0x0400 Bytes, ...) - Data: 04 20 05 F0 E1 FE 40 46 BD E8 F0 81 05 F0 01 00 ... -- CPU_WriteMem(1024 bytes @ 0x20000164)  returns 0x400 (0006ms, 0782ms total)
T0DE0 002:021 JLINK_WriteReg(R0, 0x08002800)  returns 0x00 (0000ms, 0782ms total)
T0DE0 002:021 JLINK_WriteReg(R1, 0x00000400)  returns 0x00 (0000ms, 0782ms total)
T0DE0 002:021 JLINK_WriteReg(R2, 0x20000164)  returns 0x00 (0000ms, 0782ms total)
T0DE0 002:021 JLINK_WriteReg(R3, 0x00000000)  returns 0x00 (0000ms, 0782ms total)
T0DE0 002:021 JLINK_WriteReg(R4, 0x00000000)  returns 0x00 (0000ms, 0782ms total)
T0DE0 002:021 JLINK_WriteReg(R5, 0x00000000)  returns 0x00 (0000ms, 0782ms total)
T0DE0 002:021 JLINK_WriteReg(R6, 0x00000000)  returns 0x00 (0000ms, 0782ms total)
T0DE0 002:021 JLINK_WriteReg(R7, 0x00000000)  returns 0x00 (0000ms, 0782ms total)
T0DE0 002:021 JLINK_WriteReg(R8, 0x00000000)  returns 0x00 (0000ms, 0782ms total)
T0DE0 002:021 JLINK_WriteReg(R9, 0x20000160)  returns 0x00 (0000ms, 0782ms total)
T0DE0 002:021 JLINK_WriteReg(R10, 0x00000000)  returns 0x00 (0000ms, 0782ms total)
T0DE0 002:021 JLINK_WriteReg(R11, 0x00000000)  returns 0x00 (0000ms, 0782ms total)
T0DE0 002:021 JLINK_WriteReg(R12, 0x00000000)  returns 0x00 (0000ms, 0782ms total)
T0DE0 002:021 JLINK_WriteReg(R13 (SP), 0x20001000)  returns 0x00 (0000ms, 0782ms total)
T0DE0 002:021 JLINK_WriteReg(R14, 0x20000001)  returns 0x00 (0000ms, 0782ms total)
T0DE0 002:021 JLINK_WriteReg(R15 (PC), 0x200000F4)  returns 0x00 (0000ms, 0782ms total)
T0DE0 002:021 JLINK_WriteReg(XPSR, 0x01000000)  returns 0x00 (0000ms, 0782ms total)
T0DE0 002:021 JLINK_WriteReg(MSP, 0x20001000)  returns 0x00 (0000ms, 0782ms total)
T0DE0 002:021 JLINK_WriteReg(PSP, 0x20001000)  returns 0x00 (0000ms, 0782ms total)
T0DE0 002:021 JLINK_WriteReg(CFBP, 0x00000000)  returns 0x00 (0000ms, 0782ms total)
T0DE0 002:021 JLINK_SetBPEx(Addr = 0x20000000, Type = 0xFFFFFFF2)  returns 0x0000000F (0000ms, 0782ms total)
T0DE0 002:021 JLINK_Go() -- CPU_ReadMem(4 bytes @ 0xE0001000) (0001ms, 0783ms total)
T0DE0 002:022 JLINK_IsHalted()  returns FALSE (0001ms, 0784ms total)
T0DE0 002:106 JLINK_IsHalted() -- CPU_ReadMem(2 bytes @ 0x20000000)  returns TRUE (0001ms, 0784ms total)
T0DE0 002:107 JLINK_ReadReg(R15 (PC))  returns 0x20000000 (0001ms, 0784ms total)
T0DE0 002:108 JLINK_ClrBPEx(BPHandle = 0x0000000F)  returns 0x00 (0000ms, 0784ms total)
T0DE0 002:108 JLINK_ReadReg(R0)  returns 0x00000000 (0000ms, 0784ms total)
T0DE0 002:108 JLINK_WriteMem(0x20000164, 0x0400 Bytes, ...) - Data: 0A 01 7A 49 50 48 00 68 FD F7 D2 FA 07 46 FD F7 ... -- CPU_WriteMem(1024 bytes @ 0x20000164)  returns 0x400 (0006ms, 0790ms total)
T0DE0 002:114 JLINK_WriteReg(R0, 0x08002C00)  returns 0x00 (0000ms, 0790ms total)
T0DE0 002:114 JLINK_WriteReg(R1, 0x00000400)  returns 0x00 (0000ms, 0790ms total)
T0DE0 002:114 JLINK_WriteReg(R2, 0x20000164)  returns 0x00 (0000ms, 0790ms total)
T0DE0 002:114 JLINK_WriteReg(R3, 0x00000000)  returns 0x00 (0000ms, 0790ms total)
T0DE0 002:114 JLINK_WriteReg(R4, 0x00000000)  returns 0x00 (0000ms, 0790ms total)
T0DE0 002:114 JLINK_WriteReg(R5, 0x00000000)  returns 0x00 (0000ms, 0790ms total)
T0DE0 002:114 JLINK_WriteReg(R6, 0x00000000)  returns 0x00 (0000ms, 0790ms total)
T0DE0 002:114 JLINK_WriteReg(R7, 0x00000000)  returns 0x00 (0000ms, 0790ms total)
T0DE0 002:114 JLINK_WriteReg(R8, 0x00000000)  returns 0x00 (0000ms, 0790ms total)
T0DE0 002:114 JLINK_WriteReg(R9, 0x20000160)  returns 0x00 (0000ms, 0790ms total)
T0DE0 002:114 JLINK_WriteReg(R10, 0x00000000)  returns 0x00 (0000ms, 0790ms total)
T0DE0 002:114 JLINK_WriteReg(R11, 0x00000000)  returns 0x00 (0000ms, 0790ms total)
T0DE0 002:114 JLINK_WriteReg(R12, 0x00000000)  returns 0x00 (0000ms, 0790ms total)
T0DE0 002:114 JLINK_WriteReg(R13 (SP), 0x20001000)  returns 0x00 (0000ms, 0790ms total)
T0DE0 002:114 JLINK_WriteReg(R14, 0x20000001)  returns 0x00 (0000ms, 0790ms total)
T0DE0 002:114 JLINK_WriteReg(R15 (PC), 0x200000F4)  returns 0x00 (0000ms, 0790ms total)
T0DE0 002:114 JLINK_WriteReg(XPSR, 0x01000000)  returns 0x00 (0000ms, 0790ms total)
T0DE0 002:114 JLINK_WriteReg(MSP, 0x20001000)  returns 0x00 (0000ms, 0790ms total)
T0DE0 002:114 JLINK_WriteReg(PSP, 0x20001000)  returns 0x00 (0000ms, 0790ms total)
T0DE0 002:114 JLINK_WriteReg(CFBP, 0x00000000)  returns 0x00 (0000ms, 0790ms total)
T0DE0 002:114 JLINK_SetBPEx(Addr = 0x20000000, Type = 0xFFFFFFF2)  returns 0x00000010 (0000ms, 0790ms total)
T0DE0 002:114 JLINK_Go() -- CPU_ReadMem(4 bytes @ 0xE0001000) (0001ms, 0791ms total)
T0DE0 002:115 JLINK_IsHalted()  returns FALSE (0000ms, 0791ms total)
T0DE0 002:197 JLINK_IsHalted() -- CPU_ReadMem(2 bytes @ 0x20000000)  returns TRUE (0002ms, 0793ms total)
T0DE0 002:199 JLINK_ReadReg(R15 (PC))  returns 0x20000000 (0000ms, 0791ms total)
T0DE0 002:199 JLINK_ClrBPEx(BPHandle = 0x00000010)  returns 0x00 (0000ms, 0791ms total)
T0DE0 002:199 JLINK_ReadReg(R0)  returns 0x00000000 (0000ms, 0791ms total)
T0DE0 002:199 JLINK_WriteMem(0x20000164, 0x0400 Bytes, ...) - Data: 0B F0 50 F8 00 28 F5 D1 01 F0 D8 FD C7 A2 06 21 ... -- CPU_WriteMem(1024 bytes @ 0x20000164)  returns 0x400 (0006ms, 0797ms total)
T0DE0 002:205 JLINK_WriteReg(R0, 0x08003000)  returns 0x00 (0000ms, 0797ms total)
T0DE0 002:205 JLINK_WriteReg(R1, 0x00000400)  returns 0x00 (0000ms, 0797ms total)
T0DE0 002:205 JLINK_WriteReg(R2, 0x20000164)  returns 0x00 (0000ms, 0797ms total)
T0DE0 002:205 JLINK_WriteReg(R3, 0x00000000)  returns 0x00 (0000ms, 0797ms total)
T0DE0 002:205 JLINK_WriteReg(R4, 0x00000000)  returns 0x00 (0000ms, 0797ms total)
T0DE0 002:205 JLINK_WriteReg(R5, 0x00000000)  returns 0x00 (0000ms, 0797ms total)
T0DE0 002:205 JLINK_WriteReg(R6, 0x00000000)  returns 0x00 (0000ms, 0797ms total)
T0DE0 002:205 JLINK_WriteReg(R7, 0x00000000)  returns 0x00 (0000ms, 0797ms total)
T0DE0 002:205 JLINK_WriteReg(R8, 0x00000000)  returns 0x00 (0000ms, 0797ms total)
T0DE0 002:205 JLINK_WriteReg(R9, 0x20000160)  returns 0x00 (0000ms, 0797ms total)
T0DE0 002:205 JLINK_WriteReg(R10, 0x00000000)  returns 0x00 (0000ms, 0797ms total)
T0DE0 002:205 JLINK_WriteReg(R11, 0x00000000)  returns 0x00 (0000ms, 0797ms total)
T0DE0 002:205 JLINK_WriteReg(R12, 0x00000000)  returns 0x00 (0000ms, 0797ms total)
T0DE0 002:205 JLINK_WriteReg(R13 (SP), 0x20001000)  returns 0x00 (0000ms, 0797ms total)
T0DE0 002:205 JLINK_WriteReg(R14, 0x20000001)  returns 0x00 (0000ms, 0797ms total)
T0DE0 002:205 JLINK_WriteReg(R15 (PC), 0x200000F4)  returns 0x00 (0000ms, 0797ms total)
T0DE0 002:205 JLINK_WriteReg(XPSR, 0x01000000)  returns 0x00 (0000ms, 0797ms total)
T0DE0 002:205 JLINK_WriteReg(MSP, 0x20001000)  returns 0x00 (0000ms, 0797ms total)
T0DE0 002:205 JLINK_WriteReg(PSP, 0x20001000)  returns 0x00 (0000ms, 0797ms total)
T0DE0 002:205 JLINK_WriteReg(CFBP, 0x00000000)  returns 0x00 (0000ms, 0797ms total)
T0DE0 002:205 JLINK_SetBPEx(Addr = 0x20000000, Type = 0xFFFFFFF2)  returns 0x00000011 (0000ms, 0797ms total)
